#  HZ   S   DB   R     50.00 
! Rohde & Schwarz ZVA67 4Ports - Version 4.00 - 1305.7002k04 SN: 101051
! Date: 2012-05-12 16:26:55
! Measurement: S22 
! 
 5.000000000000000E8    -3.430950113196565E-1   6.382940309249036E1  
 5.025000000000000E8    -3.577264879368771E-1   6.203435655738016E1  
 5.050000000000000E8    -3.512077422336523E-1   6.026396147311246E1  
 5.075000000000000E8    -3.455448860616318E-1   5.873577880955097E1  
 5.100000000000000E8    -3.556787008917321E-1   5.687898519786943E1  
 5.125000000000000E8    -3.299761279108420E-1   5.511612344940697E1  
 5.150000000000000E8    -3.158311287374199E-1   5.352316519241958E1  
 5.175000000000000E8    -3.423211917487937E-1   5.182212934711110E1  
 5.200000000000000E8    -3.242824831665864E-1   5.008982231687849E1  
 5.225000000000000E8    -3.195998277033954E-1   4.824869153575880E1  
 5.250000000000000E8    -3.167206596050440E-1   4.654751555901232E1  
 5.275000000000000E8    -3.261962915249194E-1   4.483968625785077E1  
 5.300000000000000E8    -3.235050560630224E-1   4.325375331654962E1  
 5.325000000000000E8    -3.228996297511462E-1   4.146679819213875E1  
 5.350000000000000E8    -3.296678884306510E-1   3.976924997495729E1  
 5.375000000000000E8    -3.148702450195312E-1   3.795839139063008E1  
 5.400000000000000E8    -3.116834532994712E-1   3.616765759022249E1  
 5.425000000000000E8    -3.217452989344301E-1   3.452472616663244E1  
 5.450000000000000E8    -3.124221508349691E-1   3.276956990583963E1  
 5.475000000000000E8    -3.262620558538616E-1   3.098548583880717E1  
 5.500000000000000E8    -3.123648192233506E-1   2.928249713241279E1  
 5.525000000000000E8    -3.651339276515766E-1   2.731885654887908E1  
 5.550000000000000E8    -2.884309220715978E-1   2.574038921284641E1  
 5.575000000000000E8    -3.069974350293612E-1   2.426969063895220E1  
 5.600000000000000E8    -3.329041267291735E-1   2.232070650279506E1  
 5.625000000000000E8    -3.055548785462678E-1   2.044983012514777E1  
 5.650000000000000E8    -3.476901475061678E-1   1.877983039804534E1  
 5.675000000000000E8    -3.508789786433905E-1   1.715440217285850E1  
 5.700000000000000E8    -3.387352049735231E-1   1.538221585995407E1  
 5.725000000000000E8    -3.223726517896292E-1   1.359985077030984E1  
 5.750000000000000E8    -3.208173878246129E-1   1.197073469052283E1  
 5.775000000000000E8    -3.278452685415662E-1   1.010442524965075E1  
 5.800000000000000E8    -3.387652066237340E-1   8.435647671502096  
 5.825000000000000E8    -3.278235822576157E-1   6.660078605895493  
 5.850000000000000E8    -3.165267778863249E-1   4.784424162744744  
 5.875000000000000E8    -3.228434838875940E-1   2.958416854222233  
 5.900000000000000E8    -2.958266746560819E-1   1.154623495292631  
 5.925000000000000E8    -3.259677446349573E-1  -6.256795959139681E-1  
 5.950000000000000E8    -3.093995149740175E-1  -2.424971397778147  
 5.975000000000000E8    -3.233815362499353E-1  -4.167769177465949  
 6.000000000000000E8    -3.078305242666979E-1  -6.210593594175551  
 6.025000000000000E8    -3.259268228696629E-1  -7.705584280445510  
 6.050000000000000E8    -3.134397648078894E-1  -9.774745653641546  
 6.075000000000000E8    -3.185944540112338E-1  -1.143312184174145E1  
 6.100000000000000E8    -3.247198741907376E-1  -1.327405957719070E1  
 6.125000000000000E8    -3.249013420489414E-1  -1.505141034953423E1  
 6.150000000000000E8    -3.349847173343722E-1  -1.683038143127371E1  
 6.175000000000000E8    -2.893074062444501E-1  -1.871197460781238E1  
 6.200000000000000E8    -2.885439548686102E-1  -2.061957799689506E1  
 6.225000000000000E8    -3.193138178989371E-1  -2.260577152740415E1  
 6.250000000000000E8    -3.323195105410619E-1  -2.421534265356245E1  
 6.275000000000000E8    -3.216738442638827E-1  -2.606249246964651E1  
 6.300000000000000E8    -3.471803533056150E-1  -2.811559331101908E1  
 6.325000000000000E8    -3.464276315292123E-1  -2.975965867438852E1  
 6.350000000000000E8    -3.576829088338618E-1  -3.173472710761866E1  
 6.375000000000000E8    -3.350073539521021E-1  -3.349373987165665E1  
 6.400000000000000E8    -3.548796785521943E-1  -3.544207718352055E1  
 6.425000000000000E8    -3.505775966414518E-1  -3.719689644648383E1  
 6.450000000000000E8    -3.641091502642416E-1  -3.908326285224300E1  
 6.475000000000000E8    -3.553630223925547E-1  -4.100099425644462E1  
 6.500000000000000E8    -3.545053009288295E-1  -4.277651228122092E1  
 6.525000000000000E8    -3.865549651250677E-1  -4.466541288365774E1  
 6.550000000000000E8    -3.665542971073085E-1  -4.654089454244832E1  
 6.575000000000000E8    -3.956201153158535E-1  -4.866843260513943E1  
 6.600000000000000E8    -3.686110974572526E-1  -5.051883967907378E1  
 6.625000000000000E8    -4.032911599354427E-1  -5.237270787425224E1  
 6.650000000000000E8    -3.699182459371798E-1  -5.441663036669817E1  
 6.675000000000000E8    -3.788377230536875E-1  -5.619837530747694E1  
 6.700000000000000E8    -3.967299418589762E-1  -5.820608826551567E1  
 6.725000000000000E8    -3.979542220274346E-1  -6.005654557178416E1  
 6.750000000000000E8    -4.218061420532983E-1  -6.200664834886359E1  
 6.775000000000000E8    -4.358079454664203E-1  -6.390263232167590E1  
 6.800000000000000E8    -4.307600768063100E-1  -6.599694930166244E1  
 6.825000000000000E8    -4.181271670098244E-1  -6.798368989688690E1  
 6.850000000000000E8    -4.488520825332338E-1  -7.002558790180729E1  
 6.875000000000000E8    -4.567072574692915E-1  -7.208866310237092E1  
 6.900000000000000E8    -4.783436741405001E-1  -7.399757543268136E1  
 6.925000000000000E8    -4.832740565336743E-1  -7.610318483369289E1  
 6.950000000000000E8    -5.097582851985893E-1  -7.823951374428758E1  
 6.975000000000000E8    -5.252148691420678E-1  -8.024581617195439E1  
 7.000000000000000E8    -5.289422418779646E-1  -8.233688855576898E1  
 7.025000000000000E8    -5.312087351925936E-1  -8.441406123466020E1  
 7.050000000000000E8    -5.621579685588654E-1  -8.646974778508884E1  
 7.075000000000000E8    -5.703539576676731E-1  -8.883852038853291E1  
 7.100000000000000E8    -5.972940451483170E-1  -9.101871682972318E1  
 7.125000000000000E8    -6.255033491723647E-1  -9.306194106065559E1  
 7.150000000000000E8    -6.376465550877120E-1  -9.513069306824328E1  
 7.175000000000000E8    -6.590952567576740E-1  -9.756380096169919E1  
 7.200000000000000E8    -6.766871615160709E-1  -9.969787840105477E1  
 7.225000000000000E8    -7.249150775013433E-1  -1.019799090297745E2  
 7.250000000000000E8    -7.497068443496352E-1  -1.044263433798349E2  
 7.275000000000000E8    -7.845614019270962E-1  -1.066516643935807E2  
 7.300000000000000E8    -8.167988473406908E-1  -1.088816163430026E2  
 7.325000000000000E8    -8.504697956643702E-1  -1.111545864968533E2  
 7.350000000000000E8    -8.836260016279969E-1  -1.133727189203555E2  
 7.375000000000000E8    -9.154769853923316E-1  -1.155979735739071E2  
 7.400000000000000E8    -9.253258713412587E-1  -1.178437054351629E2  
 7.425000000000000E8    -9.438090023221295E-1  -1.202905360077502E2  
 7.450000000000000E8    -9.645885182435342E-1  -1.227467054067975E2  
 7.475000000000000E8    -9.846839201376908E-1  -1.251232684015534E2  
 7.500000000000000E8    -1.006468819685055  -1.276027476064104E2  
 7.525000000000000E8    -1.063629092540684  -1.301784593481591E2  
 7.550000000000000E8    -1.067684375689143  -1.326819125983955E2  
 7.575000000000000E8    -1.093425212502610  -1.353189175047230E2  
 7.600000000000000E8    -1.171790643907427  -1.379968245679020E2  
 7.625000000000000E8    -1.205407899160539  -1.406677961466266E2  
 7.650000000000000E8    -1.267369028730033  -1.433294830745863E2  
 7.675000000000000E8    -1.310534984008605  -1.458545206671426E2  
 7.700000000000000E8    -1.373070651237327  -1.487380858125275E2  
 7.725000000000000E8    -1.442669815929971  -1.514067421676039E2  
 7.750000000000000E8    -1.503621246771528  -1.541402279492589E2  
 7.775000000000000E8    -1.586737019684432  -1.571145773640598E2  
 7.800000000000000E8    -1.638940323821226  -1.597855239935767E2  
 7.825000000000000E8    -1.735081471639622  -1.627944481220208E2  
 7.850000000000000E8    -1.847814673414724  -1.658597458185326E2  
 7.875000000000000E8    -1.947186935390617  -1.687154326871255E2  
 7.900000000000000E8    -2.014770985101719  -1.717562726350857E2  
 7.925000000000000E8    -2.132905819744140  -1.748544186339186E2  
 7.950000000000000E8    -2.225468773647096  -1.781119318345730E2  
 7.975000000000000E8    -2.373218583717033   1.785791250493518E2  
 8.000000000000000E8    -2.515131255640470   1.754380762969336E2  
 8.025000000000000E8    -2.651033775684933   1.719722095364841E2  
 8.050000000000000E8    -2.810521646450379   1.686592402391317E2  
 8.075000000000000E8    -2.972553062182183   1.651683165098880E2  
 8.100000000000000E8    -3.144630915886244   1.615625841838585E2  
 8.125000000000000E8    -3.312436088718539   1.578335324843907E2  
 8.150000000000000E8    -3.543710271823664   1.540655075683703E2  
 8.175000000000000E8    -3.758414454836134   1.502203054400919E2  
 8.200000000000000E8    -4.012327954694550   1.460346249310034E2  
 8.225000000000000E8    -4.315019992789711   1.418496283499775E2  
 8.250000000000000E8    -4.645610754381658   1.374975587429162E2  
 8.275000000000000E8    -5.010888391993833   1.330258658399350E2  
 8.300000000000000E8    -5.430314203873646   1.287214318334026E2  
 8.325000000000000E8    -5.891831791960986   1.243753525074634E2  
 8.350000000000000E8    -6.342401885983437   1.201744171907909E2  
 8.375000000000000E8    -6.870942809468674   1.153709422536437E2  
 8.400000000000000E8    -7.465690372803908   1.107561337616459E2  
 8.425000000000000E8    -8.169836362492077   1.061684317061304E2  
 8.450000000000000E8    -8.852905777195565   1.021355007504106E2  
 8.475000000000000E8    -9.509891251110560   9.762768660586200E1  
 8.500000000000000E8    -1.024919632214877E1   9.287964331844046E1  
 8.525000000000000E8    -1.107844125033709E1   8.714617831514862E1  
 8.550000000000000E8    -1.218170833744553E1   8.102825437220915E1  
 8.575000000000000E8    -1.342081438279694E1   7.567932676605852E1  
 8.600000000000000E8    -1.490345424574346E1   6.950482808038251E1  
 8.625000000000000E8    -1.674039348809087E1   6.381970049593023E1  
 8.650000000000000E8    -1.892418376756816E1   5.842164472862268E1  
 8.675000000000000E8    -2.166502857841471E1   5.350927309685261E1  
 8.700000000000000E8    -2.524994058951305E1   4.813397531139430E1  
 8.725000000000000E8    -3.116397774066542E1   4.043298279998505E1  
 8.750000000000000E8    -4.517010171081101E1  -2.327426389580894E1  
 8.775000000000000E8    -3.198629087363278E1  -1.277037832947161E2  
 8.800000000000000E8    -2.575044090753726E1  -1.404975134238556E2  
 8.825000000000000E8    -2.244832614450029E1  -1.481908446152122E2  
 8.850000000000000E8    -2.032122748653612E1  -1.554926598524674E2  
 8.875000000000000E8    -1.862569625426646E1  -1.604253543517096E2  
 8.900000000000000E8    -1.714414794021484E1  -1.659462702394208E2  
 8.925000000000000E8    -1.593727282871179E1  -1.723780420146318E2  
 8.950000000000000E8    -1.507356551351260E1  -1.797565303350150E2  
 8.975000000000000E8    -1.435980159328293E1   1.721151384425505E2  
 9.000000000000000E8    -1.390083902720747E1   1.623261994781382E2  
 9.025000000000000E8    -1.403480508205119E1   1.486736672094210E2  
 9.050000000000000E8    -1.719674312884188E1   1.278463850854623E2  
 9.075000000000000E8    -1.968161502172033E1  -1.645474265547532E2  
 9.100000000000000E8    -1.405354998141628E1   1.799901669318610E2  
 9.125000000000000E8    -1.286379975503207E1   1.675905328063275E2  
 9.150000000000000E8    -1.229272496087625E1   1.593546272013131E2  
 9.175000000000000E8    -1.188398268848080E1   1.520969271309184E2  
 9.200000000000000E8    -1.152970556190944E1   1.455215261724899E2  
 9.225000000000000E8    -1.126757910973701E1   1.385642906310167E2  
 9.250000000000000E8    -1.106251148303856E1   1.311358359197309E2  
 9.275000000000000E8    -1.100023907049357E1   1.237313129803370E2  
 9.300000000000000E8    -1.103393452449926E1   1.163271426093085E2  
 9.325000000000000E8    -1.117833453186389E1   1.091057739729093E2  
 9.350000000000000E8    -1.132315423619459E1   1.022677808426982E2  
 9.375000000000000E8    -1.142340051591547E1   9.500419579651785E1  
 9.400000000000000E8    -1.162722145672723E1   8.713102548481855E1  
 9.425000000000000E8    -1.194695885168561E1   7.925181749582606E1  
 9.450000000000000E8    -1.228078054639435E1   7.179974093281339E1  
 9.475000000000000E8    -1.260755402071873E1   6.433993499093707E1  
 9.500000000000000E8    -1.286072597146234E1   5.684274414360031E1  
 9.525000000000000E8    -1.309905561632752E1   4.890293881343071E1  
 9.550000000000000E8    -1.325706443474400E1   4.085490665468590E1  
 9.575000000000000E8    -1.330917839654286E1   3.213871429278920E1  
 9.600000000000000E8    -1.335753356941531E1   2.274916886285112E1  
 9.625000000000000E8    -1.335617934892424E1   1.317794877734530E1  
 9.650000000000000E8    -1.327254333641770E1   3.647542611703437  
 9.675000000000000E8    -1.307259609311313E1  -6.255486633932352  
 9.700000000000000E8    -1.282262568473938E1  -1.653431258203326E1  
 9.725000000000000E8    -1.261819224677360E1  -2.659097505132186E1  
 9.750000000000000E8    -1.239761276958387E1  -3.616336777343426E1  
 9.775000000000000E8    -1.216157771463041E1  -4.506626231726534E1  
 9.800000000000000E8    -1.184558540606866E1  -5.291521973982465E1  
 9.825000000000000E8    -1.144993779060416E1  -6.062904154832131E1  
 9.850000000000000E8    -1.098674792269237E1  -6.791635390369565E1  
 9.875000000000000E8    -1.053828909317266E1  -7.502689049161660E1  
 9.900000000000000E8    -1.007378832330317E1  -8.204039586892014E1  
 9.925000000000000E8    -9.649762210617958  -8.897920158380724E1  
 9.950000000000000E8    -9.280648679046278  -9.538617252407578E1  
 9.975000000000000E8    -8.920205917448476  -1.015456000590407E2  
 1.000000000000000E9    -8.551252955851432  -1.072440824395816E2  
