#  HZ   S   DB   R     50.00 
! Rohde & Schwarz ZVA67 4Ports - Version 4.00 - 1305.7002k04 SN: 101051
! Date: 2012-05-12 16:27:58
! Measurement: S22 
! 
 5.000000000000000E8    -2.904029400429669E-1   2.349623708246483E1  
 5.025000000000000E8    -2.962044684326624E-1   2.163699234372402E1  
 5.050000000000000E8    -3.073517707300932E-1   1.980039748742822E1  
 5.075000000000000E8    -2.860692696101492E-1   1.794241101685919E1  
 5.100000000000000E8    -2.793141908927432E-1   1.588197656813624E1  
 5.125000000000000E8    -2.831575836172036E-1   1.394676329254966E1  
 5.150000000000000E8    -2.556235765024292E-1   1.199215452205938E1  
 5.175000000000000E8    -2.622026884183579E-1   1.015357785624668E1  
 5.200000000000000E8    -2.872033300158147E-1   8.337074705265222  
 5.225000000000000E8    -2.578424299131184E-1   6.354887770900134  
 5.250000000000000E8    -2.708026302539440E-1   4.280289516083361  
 5.275000000000000E8    -2.647950191409643E-1   2.408188126933613  
 5.300000000000000E8    -2.484630574002122E-1   5.166023793025932E-1  
 5.325000000000000E8    -2.485394804279805E-1  -1.430080087543719  
 5.350000000000000E8    -2.538492965605748E-1  -3.250766499516563  
 5.375000000000000E8    -2.587723582501634E-1  -5.349649786475563  
 5.400000000000000E8    -2.763445694336026E-1  -7.216189601031688  
 5.425000000000000E8    -2.706409699895602E-1  -9.196526273934621  
 5.450000000000000E8    -2.884098297981888E-1  -1.120157086733444E1  
 5.475000000000000E8    -2.782714160664822E-1  -1.316014076051345E1  
 5.500000000000000E8    -2.536642215086983E-1  -1.501888091140951E1  
 5.525000000000000E8    -3.086432731870120E-1  -1.713521019316636E1  
 5.550000000000000E8    -2.728727555534602E-1  -1.917899789563293E1  
 5.575000000000000E8    -2.632274732198650E-1  -2.082772410370890E1  
 5.600000000000000E8    -3.037823370684744E-1  -2.292492922385227E1  
 5.625000000000000E8    -3.026569774369417E-1  -2.509907435771151E1  
 5.650000000000000E8    -3.123078873205122E-1  -2.689490120528501E1  
 5.675000000000000E8    -3.048007099566613E-1  -2.894448460437099E1  
 5.700000000000000E8    -3.093717149595620E-1  -3.094822209619503E1  
 5.725000000000000E8    -2.817053895202040E-1  -3.286893406608584E1  
 5.750000000000000E8    -2.807291843574467E-1  -3.495093536290656E1  
 5.775000000000000E8    -2.821312170034993E-1  -3.687515977705049E1  
 5.800000000000000E8    -2.849331152314261E-1  -3.877473471956910E1  
 5.825000000000000E8    -3.065382669710087E-1  -4.085288787300502E1  
 5.850000000000000E8    -2.949133169269593E-1  -4.301390964144182E1  
 5.875000000000000E8    -2.969612499581439E-1  -4.488319235552805E1  
 5.900000000000000E8    -2.698513537695170E-1  -4.705199753113509E1  
 5.925000000000000E8    -2.975115459446528E-1  -4.919659756872964E1  
 5.950000000000000E8    -2.859516838976910E-1  -5.125961194285849E1  
 5.975000000000000E8    -3.017246733004616E-1  -5.311467066301513E1  
 6.000000000000000E8    -3.029624654282289E-1  -5.538183811056453E1  
 6.025000000000000E8    -2.955218757717478E-1  -5.727725410288677E1  
 6.050000000000000E8    -2.750495698367900E-1  -5.929767120184483E1  
 6.075000000000000E8    -2.943228267630549E-1  -6.132458767242794E1  
 6.100000000000000E8    -3.067709693607666E-1  -6.333432836101089E1  
 6.125000000000000E8    -2.978446919495669E-1  -6.541839939575364E1  
 6.150000000000000E8    -3.476942016297857E-1  -6.747516223175262E1  
 6.175000000000000E8    -2.904872907153303E-1  -6.973155303555318E1  
 6.200000000000000E8    -3.216492216753505E-1  -7.181686917629170E1  
 6.225000000000000E8    -3.228975451288940E-1  -7.381966856125359E1  
 6.250000000000000E8    -3.218404518346140E-1  -7.564117751564535E1  
 6.275000000000000E8    -3.507642170967955E-1  -7.785547111013578E1  
 6.300000000000000E8    -3.680742075822263E-1  -7.981661692484764E1  
 6.325000000000000E8    -3.561013597374091E-1  -8.182552099734666E1  
 6.350000000000000E8    -3.618067151895698E-1  -8.390492731471328E1  
 6.375000000000000E8    -3.581851157583895E-1  -8.597078233787701E1  
 6.400000000000000E8    -3.726567264815124E-1  -8.805151625256146E1  
 6.425000000000000E8    -3.747408018056671E-1  -9.020232773695028E1  
 6.450000000000000E8    -4.045388240709064E-1  -9.225815837949412E1  
 6.475000000000000E8    -3.710885923120415E-1  -9.437986397804070E1  
 6.500000000000000E8    -3.784753149926766E-1  -9.648027085290497E1  
 6.525000000000000E8    -3.862214179057092E-1  -9.855501123575206E1  
 6.550000000000000E8    -3.919674051230490E-1  -1.008234549833341E2  
 6.575000000000000E8    -4.221190582136409E-1  -1.030571440658859E2  
 6.600000000000000E8    -4.057777616113008E-1  -1.052277304056836E2  
 6.625000000000000E8    -4.420636591043330E-1  -1.072374919691882E2  
 6.650000000000000E8    -4.469914783128591E-1  -1.095736965413065E2  
 6.675000000000000E8    -4.421032289866907E-1  -1.116529028829034E2  
 6.700000000000000E8    -4.629046695712235E-1  -1.138140995603330E2  
 6.725000000000000E8    -4.614292940756981E-1  -1.159806392518305E2  
 6.750000000000000E8    -4.968770193660254E-1  -1.181803450921190E2  
 6.775000000000000E8    -5.139240271436399E-1  -1.203540264684206E2  
 6.800000000000000E8    -5.294249802351044E-1  -1.225239636861498E2  
 6.825000000000000E8    -5.335078512541026E-1  -1.248822520556531E2  
 6.850000000000000E8    -5.359417871881224E-1  -1.270263838515421E2  
 6.875000000000000E8    -5.906975693090875E-1  -1.293546509866022E2  
 6.900000000000000E8    -5.928095642948148E-1  -1.314793904535218E2  
 6.925000000000000E8    -5.784906137793625E-1  -1.338529867958809E2  
 6.950000000000000E8    -6.104990684339220E-1  -1.360460917882188E2  
 6.975000000000000E8    -6.242380951392295E-1  -1.383089780012939E2  
 7.000000000000000E8    -6.343634950336929E-1  -1.407142525929025E2  
 7.025000000000000E8    -6.622316391036083E-1  -1.429725980319354E2  
 7.050000000000000E8    -6.735677066841666E-1  -1.454000813319324E2  
 7.075000000000000E8    -6.674559282036401E-1  -1.477256392564137E2  
 7.100000000000000E8    -7.068073462207282E-1  -1.501163825906174E2  
 7.125000000000000E8    -7.150435494034328E-1  -1.523971564373193E2  
 7.150000000000000E8    -7.241525778524074E-1  -1.548083732921288E2  
 7.175000000000000E8    -7.708096320110309E-1  -1.571952421648256E2  
 7.200000000000000E8    -7.820552387077272E-1  -1.596663042910903E2  
 7.225000000000000E8    -8.271004752571197E-1  -1.621165017028102E2  
 7.250000000000000E8    -8.466411520610290E-1  -1.645452574662541E2  
 7.275000000000000E8    -8.415002024495806E-1  -1.668126039541984E2  
 7.300000000000000E8    -8.722408342257253E-1  -1.693242381930581E2  
 7.325000000000000E8    -8.883188850036646E-1  -1.717736820370388E2  
 7.350000000000000E8    -9.065250130275644E-1  -1.743309775656457E2  
 7.375000000000000E8    -9.095040287555424E-1  -1.768106013016670E2  
 7.400000000000000E8    -9.464206710303114E-1  -1.792335630721008E2  
 7.425000000000000E8    -9.604404626440445E-1   1.779646844494274E2  
 7.450000000000000E8    -1.003885334620348   1.755609091554792E2  
 7.475000000000000E8    -1.009168694762413   1.728777945484070E2  
 7.500000000000000E8    -1.070982031564027   1.702242556036900E2  
 7.525000000000000E8    -1.109617055611826   1.676247115276059E2  
 7.550000000000000E8    -1.160592858473033   1.649810362642826E2  
 7.575000000000000E8    -1.168577247084093   1.623713802193454E2  
 7.600000000000000E8    -1.223047134753140   1.598261604954566E2  
 7.625000000000000E8    -1.267914292436562   1.569168670984170E2  
 7.650000000000000E8    -1.325212168402796   1.541172774781187E2  
 7.675000000000000E8    -1.382116867048043   1.515975785071540E2  
 7.700000000000000E8    -1.438983174068934   1.488725938716381E2  
 7.725000000000000E8    -1.468671457874021   1.462344497514409E2  
 7.750000000000000E8    -1.541714080102155   1.431559560663014E2  
 7.775000000000000E8    -1.593789221002078   1.401568509001002E2  
 7.800000000000000E8    -1.640561726358236   1.371908518942420E2  
 7.825000000000000E8    -1.723807584471061   1.341440710772618E2  
 7.850000000000000E8    -1.798026602452879   1.309059078537159E2  
 7.875000000000000E8    -1.902931046685680   1.277304918997025E2  
 7.900000000000000E8    -2.025198767413738   1.243725280866262E2  
 7.925000000000000E8    -2.184836726495771   1.213474220836932E2  
 7.950000000000000E8    -2.322964886971797   1.179250968898013E2  
 7.975000000000000E8    -2.453346181426849   1.149934827570539E2  
 8.000000000000000E8    -2.584793475794152   1.117400477746288E2  
 8.025000000000000E8    -2.739940368407696   1.082725084222759E2  
 8.050000000000000E8    -2.921556205535180   1.048531368149037E2  
 8.075000000000000E8    -3.071121686817730   1.014895132101086E2  
 8.100000000000000E8    -3.270366125493555   9.789779259198510E1  
 8.125000000000000E8    -3.482649274638824   9.437606875822536E1  
 8.150000000000000E8    -3.716047744992074   9.075196745148691E1  
 8.175000000000000E8    -3.946068394371982   8.717464368244440E1  
 8.200000000000000E8    -4.182687835635137   8.319130549520305E1  
 8.225000000000000E8    -4.468700387592222   7.911043470852634E1  
 8.250000000000000E8    -4.790483546563538   7.496604350712921E1  
 8.275000000000000E8    -5.205410958324368   7.060478587734221E1  
 8.300000000000000E8    -5.626714855050739   6.660358803646402E1  
 8.325000000000000E8    -6.091057714758844   6.223489265198543E1  
 8.350000000000000E8    -6.616991379243950   5.822107309551377E1  
 8.375000000000000E8    -7.259206421662189   5.407584383150213E1  
 8.400000000000000E8    -7.914827069304474   5.009726805910797E1  
 8.425000000000000E8    -8.650993153129431   4.647435156750141E1  
 8.450000000000000E8    -9.432667381803173   4.333652496741534E1  
 8.475000000000000E8    -1.030743147146320E1   4.000997366158319E1  
 8.500000000000000E8    -1.120291490558647E1   3.731921721407375E1  
 8.525000000000000E8    -1.210094332851783E1   3.433439418686896E1  
 8.550000000000000E8    -1.320685281171510E1   3.048552530721380E1  
 8.575000000000000E8    -1.464456259125480E1   2.734135023759904E1  
 8.600000000000000E8    -1.646098391180072E1   2.459611120439223E1  
 8.625000000000000E8    -1.888281969114124E1   2.394967458648499E1  
 8.650000000000000E8    -2.223113217323224E1   2.797341035068003E1  
 8.675000000000000E8    -2.651743584495446E1   4.959206250654318E1  
 8.700000000000000E8    -2.676374905475120E1   9.690156314967996E1  
 8.725000000000000E8    -2.281734828830281E1   1.194313275714230E2  
 8.750000000000000E8    -1.962879143204006E1   1.237614775606406E2  
 8.775000000000000E8    -1.766218117236296E1   1.237311864162820E2  
 8.800000000000000E8    -1.606624303698987E1   1.227748653514675E2  
 8.825000000000000E8    -1.472226927563914E1   1.203658882958047E2  
 8.850000000000000E8    -1.365656511352854E1   1.170427008251216E2  
 8.875000000000000E8    -1.286921056111943E1   1.132694117778077E2  
 8.900000000000000E8    -1.225858617983463E1   1.101544542198362E2  
 8.925000000000000E8    -1.166350694698774E1   1.077353532107969E2  
 8.950000000000000E8    -1.101745311282249E1   1.046838792425445E2  
 8.975000000000000E8    -1.044895512642068E1   1.009650433445353E2  
 9.000000000000000E8    -9.984221224011371   9.705352404482642E1  
 9.025000000000000E8    -9.519267557050297   9.298944572055288E1  
 9.050000000000000E8    -9.215300071988597   8.883566687727216E1  
 9.075000000000000E8    -8.925222673157153   8.428289043942453E1  
 9.100000000000000E8    -8.681464286018935   8.001181677911613E1  
 9.125000000000000E8    -8.522365852465999   7.512983698403225E1  
 9.150000000000000E8    -8.515571022811496   6.968380441679464E1  
 9.175000000000000E8    -8.634277204367098   6.691987831175450E1  
 9.200000000000000E8    -8.525993639622001   6.344349382720302E1  
 9.225000000000000E8    -8.487295580314584   5.976414800425118E1  
 9.250000000000000E8    -8.431258313626596   5.627004626467235E1  
 9.275000000000000E8    -8.305031523676728   5.263963011687415E1  
 9.300000000000000E8    -8.205279622649968   4.849905629102399E1  
 9.325000000000000E8    -8.084759884366386   4.397442379739229E1  
 9.350000000000000E8    -8.025652689809704   3.916462718506748E1  
 9.375000000000000E8    -8.001493846362546   3.377308202833437E1  
 9.400000000000000E8    -8.061521841485417   2.833609162383375E1  
 9.425000000000000E8    -8.173628845948590   2.262371057399176E1  
 9.450000000000000E8    -8.322416186181920   1.690696293905502E1  
 9.475000000000000E8    -8.531714857577128   1.096765706962223E1  
 9.500000000000000E8    -8.781847910904347   4.994732571283520  
 9.525000000000000E8    -9.066719547707924  -8.961360172272942E-1  
 9.550000000000000E8    -9.386091498588128  -6.913382430188312  
 9.575000000000000E8    -9.688184201081038  -1.339243223602344E1  
 9.600000000000000E8    -1.013427429218051E1  -2.013435680290843E1  
 9.625000000000000E8    -1.061180818327457E1  -2.682808396749249E1  
 9.650000000000000E8    -1.110314042065983E1  -3.325900852315596E1  
 9.675000000000000E8    -1.154068249958177E1  -3.968945902685998E1  
 9.700000000000000E8    -1.189981749332438E1  -4.679059733850598E1  
 9.725000000000000E8    -1.229734217469481E1  -5.441608093669208E1  
 9.750000000000000E8    -1.264337763624819E1  -6.232070293760145E1  
 9.775000000000000E8    -1.301348000984506E1  -7.111465834209153E1  
 9.800000000000000E8    -1.326663085630175E1  -8.008520073915291E1  
 9.825000000000000E8    -1.346546447997232E1  -8.971356505561805E1  
 9.850000000000000E8    -1.358826851440001E1  -9.952958157662222E1  
 9.875000000000000E8    -1.353151212235824E1  -1.099449846869211E2  
 9.900000000000000E8    -1.339443426716304E1  -1.208154154138248E2  
 9.925000000000000E8    -1.326712298469522E1  -1.316288199805518E2  
 9.950000000000000E8    -1.308584495028409E1  -1.417537751690889E2  
 9.975000000000000E8    -1.275052544931900E1  -1.515614906932665E2  
 1.000000000000000E9    -1.232905310409209E1  -1.607500729742588E2  
